1



                                 *********************************************

                                    NUMERICAL ELECTROMAGNETICS CODE (NEC-2D)

                                 *********************************************




                                     - - - - COMMENTS - - - -


                          Test,,,,,,,,                                                               
                                                                                                     




                                 - - - STRUCTURE SPECIFICATION - - -

                                     COORDINATES MUST BE INPUT IN
                                     METERS OR BE SCALED TO METERS
                                     BEFORE STRUCTURE INPUT IS ENDED


  WIRE                                                                               NO. OF    FIRST  LAST     TAG
  NO.        X1         Y1         Z1          X2         Y2         Z2      RADIUS   SEG.     SEG.   SEG.     NO.
     1   -3.30000    0.00000   10.00000    -3.24987    0.00000    9.42696    0.00100      3        1     3       1
     2   -3.24987    0.00000    9.42696    -3.10099    0.00000    8.87133    0.00100      3        4     6       2
     3   -3.10099    0.00000    8.87133    -2.85788    0.00000    8.35000    0.00100      3        7     9       3
     4   -2.85788    0.00000    8.35000    -2.52795    0.00000    7.87880    0.00100      3       10    12       4
     5   -2.52795    0.00000    7.87880    -2.12120    0.00000    7.47205    0.00100      3       13    15       5
     6   -2.12120    0.00000    7.47205    -1.65000    0.00000    7.14212    0.00100      3       16    18       6
     7   -1.65000    0.00000    7.14212    -1.12867    0.00000    6.89901    0.00100      3       19    21       7
     8   -1.12867    0.00000    6.89901    -0.57304    0.00000    6.75013    0.00100      3       22    24       8
     9   -0.57304    0.00000    6.75013     0.00000    0.00000    6.70000    0.00100      3       25    27       9
    10    0.00000    0.00000    6.70000     0.57304    0.00000    6.75013    0.00100      3       28    30      10
    11    0.57304    0.00000    6.75013     1.12867    0.00000    6.89901    0.00100      3       31    33      11
    12    1.12867    0.00000    6.89901     1.65000    0.00000    7.14212    0.00100      3       34    36      12
    13    1.65000    0.00000    7.14212     2.12120    0.00000    7.47205    0.00100      3       37    39      13
    14    2.12120    0.00000    7.47205     2.52795    0.00000    7.87880    0.00100      3       40    42      14
    15    2.52795    0.00000    7.87880     2.85788    0.00000    8.35000    0.00100      3       43    45      15
    16    2.85788    0.00000    8.35000     3.10099    0.00000    8.87133    0.00100      3       46    48      16
    17    3.10099    0.00000    8.87133     3.24987    0.00000    9.42696    0.00100      3       49    51      17
    18    3.24987    0.00000    9.42696     3.30000    0.00000   10.00000    0.00100      3       52    54      18
    19    3.30000    0.00000   10.00000     3.60000    0.00000   10.00000    0.00100      1       55    55      19
    20    3.60000    0.00000   10.00000     3.65013    0.00000    9.42696    0.00100      3       56    58      20
    21    3.65013    0.00000    9.42696     3.79901    0.00000    8.87133    0.00100      3       59    61      21
    22    3.79901    0.00000    8.87133     4.04212    0.00000    8.35000    0.00100      3       62    64      22
    23    4.04212    0.00000    8.35000     4.37205    0.00000    7.87880    0.00100      3       65    67      23
    24    4.37205    0.00000    7.87880     4.77880    0.00000    7.47205    0.00100      3       68    70      24
    25    4.77880    0.00000    7.47205     5.25000    0.00000    7.14212    0.00100      3       71    73      25
    26    5.25000    0.00000    7.14212     5.77133    0.00000    6.89901    0.00100      3       74    76      26
    27    5.77133    0.00000    6.89901     6.32696    0.00000    6.75013    0.00100      3       77    79      27
    28    6.32696    0.00000    6.75013     6.90000    0.00000    6.70000    0.00100      3       80    82      28
    29    6.90000    0.00000    6.70000     7.47304    0.00000    6.75013    0.00100      3       83    85      29
    30    7.47304    0.00000    6.75013     8.02867    0.00000    6.89901    0.00100      3       86    88      30
    31    8.02867    0.00000    6.89901     8.55000    0.00000    7.14212    0.00100      3       89    91      31
    32    8.55000    0.00000    7.14212     9.02120    0.00000    7.47205    0.00100      3       92    94      32
    33    9.02120    0.00000    7.47205     9.42795    0.00000    7.87880    0.00100      3       95    97      33
    34    9.42795    0.00000    7.87880     9.75788    0.00000    8.35000    0.00100      3       98   100      34
    35    9.75788    0.00000    8.35000    10.00099    0.00000    8.87133    0.00100      3      101   103      35
    36   10.00099    0.00000    8.87133    10.14987    0.00000    9.42696    0.00100      3      104   106      36
    37   10.14987    0.00000    9.42696    10.20000    0.00000   10.00000    0.00100      3      107   109      37

   TOTAL SEGMENTS USED=  109     NO. SEG. IN A SYMMETRIC CELL=  109     SYMMETRY FLAG=  0


         - MULTIPLE WIRE JUNCTIONS -
 JUNCTION    SEGMENTS  (- FOR END 1, + FOR END 2)
  NONE




                                 - - - - SEGMENTATION DATA - - - -

                                        COORDINATES IN METERS

                         I+ AND I- INDICATE THE SEGMENTS BEFORE AND AFTER I


  SEG.   COORDINATES OF SEG. CENTER     SEG.     ORIENTATION ANGLES    WIRE    CONNECTION DATA   TAG
  NO.       X         Y         Z       LENGTH     ALPHA     BETA      RADIUS    I-   I    I+    NO.
     1  -3.29164   0.00000   9.90449   0.19174  -85.00004   0.00000   0.00100     0    1    2      1
     2  -3.27493   0.00000   9.71348   0.19174  -85.00004   0.00000   0.00100     1    2    3      1
     3  -3.25822   0.00000   9.52247   0.19174  -85.00004   0.00000   0.00100     2    3    4      1
     4  -3.22505   0.00000   9.33436   0.19174  -74.99999   0.00000   0.00100     3    4    5      2
     5  -3.17543   0.00000   9.14915   0.19174  -74.99999   0.00000   0.00100     4    5    6      2
     6  -3.12580   0.00000   8.96394   0.19174  -74.99999   0.00000   0.00100     5    6    7      2
     7  -3.06047   0.00000   8.78444   0.19174  -64.99998   0.00000   0.00100     6    7    8      3
     8  -2.97943   0.00000   8.61067   0.19174  -64.99998   0.00000   0.00100     7    8    9      3
     9  -2.89840   0.00000   8.43689   0.19174  -64.99998   0.00000   0.00100     8    9   10      3
    10  -2.80289   0.00000   8.27147   0.19174  -55.00001   0.00000   0.00100     9   10   11      4
    11  -2.69292   0.00000   8.11440   0.19174  -55.00001   0.00000   0.00100    10   11   12      4
    12  -2.58294   0.00000   7.95733   0.19174  -55.00001   0.00000   0.00100    11   12   13      4
    13  -2.46016   0.00000   7.81101   0.19174  -44.99997   0.00000   0.00100    12   13   14      5
    14  -2.32457   0.00000   7.67543   0.19174  -44.99997   0.00000   0.00100    13   14   15      5
    15  -2.18899   0.00000   7.53984   0.19174  -44.99997   0.00000   0.00100    14   15   16      5
    16  -2.04267   0.00000   7.41706   0.19174  -35.00000   0.00000   0.00100    15   16   17      6
    17  -1.88560   0.00000   7.30708   0.19174  -35.00000   0.00000   0.00100    16   17   18      6
    18  -1.72853   0.00000   7.19711   0.19174  -35.00000   0.00000   0.00100    17   18   19      6
    19  -1.56311   0.00000   7.10160   0.19174  -24.99998   0.00000   0.00100    18   19   20      7
    20  -1.38933   0.00000   7.02057   0.19174  -24.99998   0.00000   0.00100    19   20   21      7
    21  -1.21555   0.00000   6.93953   0.19174  -24.99998   0.00000   0.00100    20   21   22      7
    22  -1.03606   0.00000   6.87420   0.19174  -15.00002   0.00000   0.00100    21   22   23      8
    23  -0.85085   0.00000   6.82457   0.19174  -15.00002   0.00000   0.00100    22   23   24      8
    24  -0.66564   0.00000   6.77495   0.19174  -15.00002   0.00000   0.00100    23   24   25      8
    25  -0.47753   0.00000   6.74178   0.19174   -5.00000   0.00000   0.00100    24   25   26      9
    26  -0.28652   0.00000   6.72507   0.19174   -5.00000   0.00000   0.00100    25   26   27      9
    27  -0.09551   0.00000   6.70836   0.19174   -5.00000   0.00000   0.00100    26   27   28      9
    28   0.09551   0.00000   6.70836   0.19174    5.00000   0.00000   0.00100    27   28   29     10
    29   0.28652   0.00000   6.72507   0.19174    5.00000   0.00000   0.00100    28   29   30     10
    30   0.47753   0.00000   6.74178   0.19174    5.00000   0.00000   0.00100    29   30   31     10
    31   0.66564   0.00000   6.77495   0.19174   15.00001   0.00000   0.00100    30   31   32     11
    32   0.85085   0.00000   6.82457   0.19174   15.00001   0.00000   0.00100    31   32   33     11
    33   1.03606   0.00000   6.87420   0.19174   15.00001   0.00000   0.00100    32   33   34     11
    34   1.21556   0.00000   6.93953   0.19174   25.00000   0.00000   0.00100    33   34   35     12
    35   1.38933   0.00000   7.02057   0.19174   25.00000   0.00000   0.00100    34   35   36     12
    36   1.56311   0.00000   7.10160   0.19174   25.00000   0.00000   0.00100    35   36   37     12
    37   1.72853   0.00000   7.19711   0.19174   34.99999   0.00000   0.00100    36   37   38     13
    38   1.88560   0.00000   7.30708   0.19174   34.99999   0.00000   0.00100    37   38   39     13
    39   2.04267   0.00000   7.41706   0.19174   34.99999   0.00000   0.00100    38   39   40     13
    40   2.18899   0.00000   7.53984   0.19174   45.00000   0.00000   0.00100    39   40   41     14
    41   2.32457   0.00000   7.67543   0.19174   45.00000   0.00000   0.00100    40   41   42     14
    42   2.46016   0.00000   7.81101   0.19174   45.00000   0.00000   0.00100    41   42   43     14
    43   2.58294   0.00000   7.95733   0.19174   55.00001   0.00000   0.00100    42   43   44     15
    44   2.69292   0.00000   8.11440   0.19174   55.00001   0.00000   0.00100    43   44   45     15
    45   2.80289   0.00000   8.27147   0.19174   55.00001   0.00000   0.00100    44   45   46     15
    46   2.89840   0.00000   8.43689   0.19174   65.00000   0.00000   0.00100    45   46   47     16
    47   2.97943   0.00000   8.61067   0.19174   65.00000   0.00000   0.00100    46   47   48     16
    48   3.06047   0.00000   8.78444   0.19174   65.00000   0.00000   0.00100    47   48   49     16
    49   3.12580   0.00000   8.96394   0.19174   74.99999   0.00000   0.00100    48   49   50     17
    50   3.17543   0.00000   9.14915   0.19174   74.99999   0.00000   0.00100    49   50   51     17
    51   3.22505   0.00000   9.33436   0.19174   74.99999   0.00000   0.00100    50   51   52     17
    52   3.25822   0.00000   9.52247   0.19174   85.00000   0.00000   0.00100    51   52   53     18
    53   3.27493   0.00000   9.71348   0.19174   85.00000   0.00000   0.00100    52   53   54     18
    54   3.29164   0.00000   9.90449   0.19174   85.00000   0.00000   0.00100    53   54   55     18
    55   3.45000   0.00000  10.00000   0.30000    0.00000   0.00000   0.00100    54   55   56     19
    56   3.60836   0.00000   9.90449   0.19174  -85.00000   0.00000   0.00100    55   56   57     20
    57   3.62507   0.00000   9.71348   0.19174  -85.00000   0.00000   0.00100    56   57   58     20
    58   3.64178   0.00000   9.52247   0.19174  -85.00000   0.00000   0.00100    57   58   59     20
    59   3.67495   0.00000   9.33436   0.19174  -74.99999   0.00000   0.00100    58   59   60     21
    60   3.72457   0.00000   9.14915   0.19174  -74.99999   0.00000   0.00100    59   60   61     21
    61   3.77420   0.00000   8.96394   0.19174  -74.99999   0.00000   0.00100    60   61   62     21
    62   3.83953   0.00000   8.78444   0.19174  -65.00000   0.00000   0.00100    61   62   63     22
    63   3.92057   0.00000   8.61067   0.19174  -65.00000   0.00000   0.00100    62   63   64     22
    64   4.00160   0.00000   8.43689   0.19174  -65.00000   0.00000   0.00100    63   64   65     22
    65   4.09711   0.00000   8.27147   0.19174  -55.00001   0.00000   0.00100    64   65   66     23
    66   4.20708   0.00000   8.11440   0.19174  -55.00001   0.00000   0.00100    65   66   67     23
    67   4.31706   0.00000   7.95733   0.19174  -55.00001   0.00000   0.00100    66   67   68     23
    68   4.43984   0.00000   7.81101   0.19174  -45.00000   0.00000   0.00100    67   68   69     24
    69   4.57543   0.00000   7.67543   0.19174  -45.00000   0.00000   0.00100    68   69   70     24
    70   4.71101   0.00000   7.53984   0.19174  -45.00000   0.00000   0.00100    69   70   71     24
    71   4.85733   0.00000   7.41706   0.19174  -34.99999   0.00000   0.00100    70   71   72     25
    72   5.01440   0.00000   7.30708   0.19174  -34.99999   0.00000   0.00100    71   72   73     25
    73   5.17147   0.00000   7.19711   0.19174  -34.99999   0.00000   0.00100    72   73   74     25
    74   5.33689   0.00000   7.10160   0.19174  -25.00000   0.00000   0.00100    73   74   75     26
    75   5.51067   0.00000   7.02057   0.19174  -25.00000   0.00000   0.00100    74   75   76     26
    76   5.68444   0.00000   6.93953   0.19174  -25.00000   0.00000   0.00100    75   76   77     26
    77   5.86394   0.00000   6.87420   0.19174  -15.00001   0.00000   0.00100    76   77   78     27
    78   6.04915   0.00000   6.82457   0.19174  -15.00001   0.00000   0.00100    77   78   79     27
    79   6.23436   0.00000   6.77495   0.19174  -15.00001   0.00000   0.00100    78   79   80     27
    80   6.42247   0.00000   6.74178   0.19174   -5.00000   0.00000   0.00100    79   80   81     28
    81   6.61348   0.00000   6.72507   0.19174   -5.00000   0.00000   0.00100    80   81   82     28
    82   6.80449   0.00000   6.70836   0.19174   -5.00000   0.00000   0.00100    81   82   83     28
    83   6.99551   0.00000   6.70836   0.19174    5.00000   0.00000   0.00100    82   83   84     29
    84   7.18652   0.00000   6.72507   0.19174    5.00000   0.00000   0.00100    83   84   85     29
    85   7.37753   0.00000   6.74178   0.19174    5.00000   0.00000   0.00100    84   85   86     29
    86   7.56564   0.00000   6.77495   0.19174   15.00001   0.00000   0.00100    85   86   87     30
    87   7.75085   0.00000   6.82457   0.19174   15.00001   0.00000   0.00100    86   87   88     30
    88   7.93606   0.00000   6.87420   0.19174   15.00001   0.00000   0.00100    87   88   89     30
    89   8.11556   0.00000   6.93953   0.19174   25.00000   0.00000   0.00100    88   89   90     31
    90   8.28933   0.00000   7.02057   0.19174   25.00000   0.00000   0.00100    89   90   91     31
    91   8.46311   0.00000   7.10160   0.19174   25.00000   0.00000   0.00100    90   91   92     31
    92   8.62853   0.00000   7.19711   0.19174   34.99999   0.00000   0.00100    91   92   93     32
    93   8.78560   0.00000   7.30708   0.19174   34.99999   0.00000   0.00100    92   93   94     32
    94   8.94267   0.00000   7.41706   0.19174   34.99999   0.00000   0.00100    93   94   95     32
    95   9.08899   0.00000   7.53984   0.19174   45.00000   0.00000   0.00100    94   95   96     33
    96   9.22457   0.00000   7.67543   0.19174   45.00000   0.00000   0.00100    95   96   97     33
    97   9.36016   0.00000   7.81101   0.19174   45.00000   0.00000   0.00100    96   97   98     33
    98   9.48294   0.00000   7.95733   0.19174   55.00001   0.00000   0.00100    97   98   99     34
    99   9.59292   0.00000   8.11440   0.19174   55.00001   0.00000   0.00100    98   99  100     34
   100   9.70289   0.00000   8.27147   0.19174   55.00001   0.00000   0.00100    99  100  101     34
   101   9.79840   0.00000   8.43689   0.19174   64.99996   0.00000   0.00100   100  101  102     35
   102   9.87943   0.00000   8.61067   0.19174   64.99996   0.00000   0.00100   101  102  103     35
   103   9.96047   0.00000   8.78444   0.19174   64.99996   0.00000   0.00100   102  103  104     35
   104  10.02580   0.00000   8.96394   0.19174   74.99999   0.00000   0.00100   103  104  105     36
   105  10.07543   0.00000   9.14915   0.19174   74.99999   0.00000   0.00100   104  105  106     36
   106  10.12505   0.00000   9.33436   0.19174   74.99999   0.00000   0.00100   105  106  107     36
   107  10.15822   0.00000   9.52247   0.19174   85.00004   0.00000   0.00100   106  107  108     37
   108  10.17493   0.00000   9.71348   0.19174   85.00004   0.00000   0.00100   107  108  109     37
   109  10.19164   0.00000   9.90449   0.19174   85.00004   0.00000   0.00100   108  109    0     37






 ***** DATA CARD NO.  1   GN   0     0     0     0  4.00000E+00  3.00000E-03  0.00000E+00  0.00000E+00  0.00000E+00  0.00000E+00
 ***** DATA CARD NO.  2   EK   0     0     0     0  0.00000E+00  0.00000E+00  0.00000E+00  0.00000E+00  0.00000E+00  0.00000E+00
 ***** DATA CARD NO.  3   EX   0    19     1     0  1.00000E+00  0.00000E+00  0.00000E+00  0.00000E+00  0.00000E+00  0.00000E+00
 ***** DATA CARD NO.  4   FR   0     1     0     0  7.20000E+00  0.00000E+00  0.00000E+00  0.00000E+00  0.00000E+00  0.00000E+00
 ***** DATA CARD NO.  5   RP   0    19    73  1003 -9.00000E+01  0.00000E+00  5.00000E+00  5.00000E+00  0.00000E+00  0.00000E+00




                                 - - - - - - FREQUENCY - - - - - -

                                    FREQUENCY= 7.2000E+00 MHZ
                                    WAVELENGTH= 4.1639E+01 METERS




                    APPROXIMATE INTEGRATION EMPLOYED FOR SEGMENTS MORE THAN   1.000 WAVELENGTHS APART

                    THE EXTENDED THIN WIRE KERNEL WILL BE USED



                               - - - STRUCTURE IMPEDANCE LOADING - - -

                                   THIS STRUCTURE IS NOT LOADED



                                  - - - ANTENNA ENVIRONMENT - - -

                                        FINITE GROUND.  REFLECTION COEFFICIENT APPROXIMATION
                                        RELATIVE DIELECTRIC CONST.=  4.000
                                        CONDUCTIVITY= 3.000E-03 MHOS/METER
                                        COMPLEX DIELECTRIC CONSTANT= 4.00000E+00-7.49000E+00



                                - - - MATRIX TIMING - - -

                        FILL=    0.047 SEC.,  FACTOR=    0.000 SEC.



                                          - - - ANTENNA INPUT PARAMETERS - - -

   TAG   SEG.    VOLTAGE (VOLTS)         CURRENT (AMPS)         IMPEDANCE (OHMS)        ADMITTANCE (MHOS)      POWER
   NO.   NO.    REAL        IMAG.       REAL        IMAG.       REAL        IMAG.       REAL        IMAG.     (WATTS)
    19    55 1.00000E+00 0.00000E+00 1.93330E-02 1.20626E-02 3.72309E+01-2.32299E+01 1.93330E-02 1.20626E-02 9.66651E-03



                             - - - CURRENTS AND LOCATION - - -

                                 DISTANCES IN WAVELENGTHS


  SEG.  TAG    COORD. OF SEG. CENTER     SEG.            - - - CURRENT (AMPS) - - -
  NO.   NO.     X        Y        Z      LENGTH     REAL        IMAG.       MAG.        PHASE
     1    1  -0.0791   0.0000   0.2379  0.00460   3.8743E-04  2.2186E-04  4.4646E-04   29.798
     2    1  -0.0787   0.0000   0.2333  0.00460   1.0623E-03  6.0832E-04  1.2241E-03   29.798
     3    1  -0.0782   0.0000   0.2287  0.00460   1.6923E-03  9.6912E-04  1.9501E-03   29.799
     4    2  -0.0775   0.0000   0.2242  0.00460   2.3031E-03  1.3190E-03  2.6541E-03   29.799
